time	V(cap)	V(source)
0.000000000000000e+00	0.000000e+00	0.000000e+00
9.142857087291697e-08	3.759883e-05	5.744954e-02
1.828571417458339e-07	1.353809e-04	1.148896e-01
2.742857126187509e-07	2.933463e-04	1.723202e-01
3.657142834916679e-07	5.114950e-04	2.297414e-01
4.571428543645849e-07	7.898270e-04	2.871531e-01
5.485714252375018e-07	1.128342e-03	3.445553e-01
6.399999961104186e-07	1.527041e-03	4.019481e-01
1.128281246110419e-06	4.350907e-03	7.081597e-01
1.616562496110419e-06	8.523312e-03	1.013732e+00
2.104843746110419e-06	1.416149e-02	1.318350e+00
2.593124996110419e-06	2.125295e-02	1.621728e+00
3.081406246110419e-06	2.978389e-02	1.923579e+00
3.569687496110419e-06	3.973915e-02	2.223619e+00
4.057968746110418e-06	5.110230e-02	2.521567e+00
4.546249996110419e-06	6.385560e-02	2.817142e+00
5.034531246110419e-06	7.798003e-02	3.110065e+00
5.522812496110420e-06	9.345536e-02	3.400062e+00
6.011093746110420e-06	1.102601e-01	3.686858e+00
6.499374996110420e-06	1.283714e-01	3.970184e+00
6.987656246110421e-06	1.477655e-01	4.249774e+00
7.475937496110421e-06	1.684172e-01	4.525364e+00
7.964218746110422e-06	1.903004e-01	4.796695e+00
8.452499996110422e-06	2.133876e-01	5.063511e+00
9.429062496110423e-06	2.630592e-01	5.582600e+00
1.040562499611042e-05	3.171916e-01	6.080678e+00
1.138218749611042e-05	3.755281e-01	6.555869e+00
1.284703124611043e-05	4.703165e-01	7.221857e+00
1.431187499611043e-05	5.729714e-01	7.826711e+00
1.549770088896757e-05	6.626791e-01	8.272472e+00
1.668352678182472e-05	7.547373e-01	8.667678e+00
1.786935267468186e-05	8.491460e-01	9.012329e+00
1.905517856753900e-05	9.459050e-01	9.306425e+00
2.024100446039615e-05	1.045015e+00	9.549965e+00
2.142683035325329e-05	1.146475e+00	9.742951e+00
2.261265624611043e-05	1.250285e+00	9.885382e+00
2.407749999611044e-05	1.379565e+00	9.978336e+00
2.554234374611044e-05	1.504828e+00	9.988672e+00
2.700718749611044e-05	1.626073e+00	9.916390e+00
2.847203124611044e-05	1.743300e+00	9.761489e+00
2.993687499611044e-05	1.856510e+00	9.523971e+00
3.140171874611045e-05	1.965702e+00	9.203833e+00
3.286656249611044e-05	2.070876e+00	8.801078e+00
3.405238838896759e-05	2.149060e+00	8.416816e+00
3.523821428182473e-05	2.220537e+00	7.992398e+00
3.642404017468188e-05	2.285308e+00	7.527823e+00
3.760986606753902e-05	2.343372e+00	7.023092e+00
3.879569196039616e-05	2.394729e+00	6.478203e+00
3.998151785325330e-05	2.439379e+00	5.893158e+00
4.116734374611045e-05	2.477323e+00	5.267957e+00
4.263218749611045e-05	2.512095e+00	4.464695e+00
4.409703124611045e-05	2.534398e+00	3.623639e+00
4.507359374611045e-05	2.542178e+00	3.045443e+00
4.556187499611045e-05	2.543914e+00	2.751909e+00
4.605015624611045e-05	2.544206e+00	2.455785e+00
4.653843749611045e-05	2.543049e+00	2.156636e+00
4.702671874611045e-05	2.540437e+00	1.856169e+00
4.751499999611045e-05	2.536371e+00	1.554383e+00
4.800328124611045e-05	2.530851e+00	1.251277e+00
4.849156249611045e-05	2.523877e+00	9.468526e-01
4.897984374611045e-05	2.515448e+00	6.411089e-01
4.946812499611046e-05	2.505566e+00	3.340461e-01
5.093296874611046e-05	2.467285e+00	-5.857280e-01
5.170026785325331e-05	2.441956e+00	-1.068764e+00
5.246756696039617e-05	2.413305e+00	-1.546577e+00
5.323486606753903e-05	2.381332e+00	-2.019166e+00
5.400216517468189e-05	2.346037e+00	-2.486532e+00
5.476946428182475e-05	2.307421e+00	-2.948674e+00
5.553676338896760e-05	2.265482e+00	-3.405592e+00
5.630406249611046e-05	2.220222e+00	-3.857287e+00
5.755964285325332e-05	2.138535e+00	-4.582004e+00
5.881522321039618e-05	2.050430e+00	-5.268255e+00
6.007080356753903e-05	1.955906e+00	-5.916040e+00
6.132638392468190e-05	1.854964e+00	-6.525357e+00
6.258196428182475e-05	1.747603e+00	-7.096209e+00
6.383754463896761e-05	1.633825e+00	-7.628594e+00
6.509312499611046e-05	1.513628e+00	-8.122512e+00
6.627895088896760e-05	1.395999e+00	-8.537846e+00
6.746477678182475e-05	1.276726e+00	-8.901605e+00
6.865060267468189e-05	1.155806e+00	-9.213790e+00
6.983642856753904e-05	1.033242e+00	-9.474400e+00
7.102225446039618e-05	9.090319e-01	-9.683436e+00
7.220808035325333e-05	7.831766e-01	-9.840897e+00
7.339390624611047e-05	6.556759e-01	-9.946784e+00
7.416120535325333e-05	5.740548e-01	-9.983636e+00
7.492850446039618e-05	4.932913e-01	-9.997367e+00
7.569580356753905e-05	4.133854e-01	-9.987978e+00
7.646310267468190e-05	3.343371e-01	-9.955467e+00
7.723040178182476e-05	2.561464e-01	-9.899835e+00
7.799770088896762e-05	1.788133e-01	-9.821082e+00
7.876499999611047e-05	1.023377e-01	-9.719208e+00
7.925328124611047e-05	5.468396e-02	-9.642760e+00
7.974156249611048e-05	7.656761e-03	-9.557239e+00
8.022984374611048e-05	-3.870289e-02	-9.462721e+00
8.071812499611048e-05	-8.435465e-02	-9.359299e+00
8.120640624611048e-05	-1.292588e-01	-9.247066e+00
8.218296874611048e-05	-2.166691e-01	-8.996608e+00
8.315953124611048e-05	-3.006306e-01	-8.712288e+00
8.413609374611048e-05	-3.808529e-01	-8.395177e+00
8.560093749611048e-05	-4.935743e-01	-7.860670e+00
8.706578124611048e-05	-5.963938e-01	-7.259622e+00
8.853062499611048e-05	-6.885244e-01	-6.597120e+00
8.999546874611048e-05	-7.692680e-01	-5.878772e+00
9.146031249611049e-05	-8.380221e-01	-5.110660e+00
9.292515624611049e-05	-8.942843e-01	-4.299284e+00
9.438999999611049e-05	-9.376568e-01	-3.451514e+00
9.585484374611049e-05	-9.678498e-01	-2.574527e+00
9.731968749611049e-05	-9.846839e-01	-1.675746e+00
9.829624999611049e-05	-9.884472e-01	-1.068203e+00
9.927281249611049e-05	-9.862487e-01	-4.566390e-01
1.007376562461105e-04	-9.718447e-01	4.632081e-01
1.022024999961105e-04	-9.442942e-01	1.379134e+00
1.036673437461105e-04	-9.039019e-01	2.283386e+00
1.051321874961105e-04	-8.510804e-01	3.168308e+00
1.065970312461105e-04	-7.863461e-01	4.026410e+00
1.080618749961105e-04	-7.103156e-01	4.850427e+00
1.095267187461105e-04	-6.237000e-01	5.633385e+00
1.109915624961105e-04	-5.272989e-01	6.368655e+00
1.124564062461105e-04	-4.219939e-01	7.050014e+00
1.139212499961105e-04	-3.087410e-01	7.671693e+00
1.148978124961105e-04	-2.293260e-01	8.050369e+00
1.158743749961105e-04	-1.471493e-01	8.398746e+00
1.163626562461105e-04	-1.051274e-01	8.561157e+00
1.168509374961105e-04	-6.253866e-02	8.715511e+00
1.173392187461105e-04	-1.942553e-02	8.861663e+00
1.178274999961105e-04	2.416918e-02	8.999474e+00
1.183157812461105e-04	6.820218e-02	9.128815e+00
1.192923437461105e-04	1.574079e-01	9.361609e+00
1.201293973175391e-04	2.354285e-01	9.533846e+00
1.209664508889676e-04	3.135536e-01	9.678936e+00
1.218035044603962e-04	3.917832e-01	9.796880e+00
1.226405580318248e-04	4.701172e-01	9.887678e+00
1.234776116032534e-04	5.485558e-01	9.951330e+00
1.243146651746819e-04	6.270988e-01	9.987835e+00
1.251517187461105e-04	7.057464e-01	9.997193e+00
1.264072991032534e-04	8.232559e-01	9.955567e+00
1.276628794603962e-04	9.366669e-01	9.854672e+00
1.289184598175391e-04	1.045979e+00	9.694509e+00
1.301740401746819e-04	1.151193e+00	9.475076e+00
1.314296205318248e-04	1.252308e+00	9.196375e+00
1.326852008889677e-04	1.349325e+00	8.858405e+00
1.339407812461105e-04	1.442243e+00	8.461166e+00
1.350568526746819e-04	1.518789e+00	8.061213e+00
1.361729241032534e-04	1.589068e+00	7.627457e+00
1.372889955318248e-04	1.653080e+00	7.159897e+00
1.384050669603962e-04	1.710826e+00	6.658535e+00
1.395211383889677e-04	1.762305e+00	6.123370e+00
1.406372098175391e-04	1.807517e+00	5.554402e+00
1.417532812461105e-04	1.846462e+00	4.951631e+00
1.423810714246819e-04	1.864870e+00	4.603862e+00
1.430088616032534e-04	1.880912e+00	4.250333e+00
1.436366517818248e-04	1.894588e+00	3.891043e+00
1.442644419603962e-04	1.905898e+00	3.525991e+00
1.448922321389677e-04	1.914843e+00	3.155180e+00
1.455200223175391e-04	1.921421e+00	2.778607e+00
1.461478124961105e-04	1.925634e+00	2.396273e+00
1.476126562461105e-04	1.925922e+00	1.494042e+00
1.479614285675391e-04	1.924037e+00	1.276810e+00
1.483102008889677e-04	1.921406e+00	1.059227e+00
1.486589732103962e-04	1.918027e+00	8.412923e-01
1.490077455318248e-04	1.913901e+00	6.230062e-01
1.493565178532534e-04	1.909028e+00	4.043688e-01
1.497052901746819e-04	1.903407e+00	1.853799e-01
1.500540624961105e-04	1.897040e+00	-3.396042e-02
1.505423437461105e-04	1.886859e+00	-3.413363e-01
1.510306249961105e-04	1.875262e+00	-6.476731e-01
1.515189062461105e-04	1.862248e+00	-9.529707e-01
1.520071874961105e-04	1.847818e+00	-1.257229e+00
1.524954687461105e-04	1.831972e+00	-1.560449e+00
1.529837499961105e-04	1.814710e+00	-1.862629e+00
1.534720312461105e-04	1.796031e+00	-2.163770e+00
1.545183482103963e-04	1.750885e+00	-2.806786e+00
1.555646651746820e-04	1.700221e+00	-3.431170e+00
1.566109821389677e-04	1.644039e+00	-4.036922e+00
1.576572991032534e-04	1.582338e+00	-4.624041e+00
1.587036160675391e-04	1.515120e+00	-5.192527e+00
1.597499330318248e-04	1.442383e+00	-5.742381e+00
1.607962499961105e-04	1.364128e+00	-6.273602e+00
1.619820758889677e-04	1.269332e+00	-6.842000e+00
1.631679017818248e-04	1.170624e+00	-7.365895e+00
1.643537276746820e-04	1.068003e+00	-7.845289e+00
1.655395535675391e-04	9.614691e-01	-8.280180e+00
1.667253794603963e-04	8.510226e-01	-8.670570e+00
1.679112053532534e-04	7.366635e-01	-9.016457e+00
1.690970312461105e-04	6.183916e-01	-9.317842e+00
1.697945758889677e-04	5.484677e-01	-9.468154e+00
1.704921205318248e-04	4.783778e-01	-9.599756e+00
1.711896651746820e-04	4.081219e-01	-9.712648e+00
1.718872098175391e-04	3.376999e-01	-9.806830e+00
1.725847544603963e-04	2.671119e-01	-9.882301e+00
1.732822991032534e-04	1.963579e-01	-9.939064e+00
1.739798437461105e-04	1.254379e-01	-9.977116e+00
1.749564062461105e-04	2.713754e-02	-9.997610e+00
1.754446874961105e-04	-2.168279e-02	-9.993745e+00
1.764212499961105e-04	-1.184404e-01	-9.957811e+00
1.773978124961105e-04	-2.137261e-01	-9.884398e+00
1.788626562461105e-04	-3.531338e-01	-9.704647e+00
1.803274999961106e-04	-4.872997e-01	-9.442746e+00
1.817923437461106e-04	-6.151210e-01	-9.100910e+00
1.832571874961106e-04	-7.355478e-01	-8.682034e+00
1.845127678532534e-04	-8.333004e-01	-8.255943e+00
1.857683482103963e-04	-9.231032e-01	-7.786592e+00
1.870239285675391e-04	-1.004956e+00	-7.273980e+00
1.882795089246820e-04	-1.078859e+00	-6.718107e+00
1.895350892818249e-04	-1.144812e+00	-6.118974e+00
1.907906696389677e-04	-1.202815e+00	-5.476579e+00
1.920462499961106e-04	-1.252869e+00	-4.790924e+00
1.927437946389677e-04	-1.276180e+00	-4.399895e+00
1.934413392818248e-04	-1.296522e+00	-4.002362e+00
1.941388839246820e-04	-1.313896e+00	-3.598324e+00
1.948364285675391e-04	-1.328300e+00	-3.187781e+00
1.955339732103963e-04	-1.339736e+00	-2.770734e+00
1.962315178532534e-04	-1.348203e+00	-2.347182e+00
1.969290624961106e-04	-1.353700e+00	-1.917125e+00
1.979056249961106e-04	-1.356235e+00	-1.311831e+00
1.993704687461106e-04	-1.348919e+00	-3.953500e-01
2.013235937461106e-04	-1.318579e+00	8.304847e-01
2.020908928532534e-04	-1.300152e+00	1.312384e+00
2.028581919603963e-04	-1.278373e+00	1.788508e+00
2.036254910675391e-04	-1.253241e+00	2.258855e+00
2.043927901746820e-04	-1.224756e+00	2.723426e+00
2.051600892818248e-04	-1.192919e+00	3.182221e+00
2.059273883889677e-04	-1.157729e+00	3.635240e+00
2.066946874961106e-04	-1.119186e+00	4.082483e+00
2.078805133889677e-04	-1.052736e+00	4.758700e+00
2.090663392818249e-04	-9.804707e-01	5.400183e+00
2.102521651746820e-04	-9.023890e-01	6.006933e+00
2.114379910675392e-04	-8.184914e-01	6.578948e+00
2.126238169603963e-04	-7.287778e-01	7.116230e+00
2.138096428532534e-04	-6.332483e-01	7.618778e+00
2.149954687461106e-04	-5.319029e-01	8.086593e+00
2.164603124961106e-04	-4.028115e-01	8.592678e+00
2.179251562461106e-04	-2.687637e-01	9.026024e+00
2.193899999961106e-04	-1.309168e-01	9.382963e+00
2.203665624961106e-04	-3.749432e-02	9.576955e+00
2.208548437461106e-04	9.540305e-03	9.660474e+00
2.213431249961106e-04	5.684389e-02	9.735021e+00
2.218314062461106e-04	1.041445e-01	9.800278e+00
2.223196874961106e-04	1.514420e-01	9.856245e+00
2.228079687461106e-04	1.987365e-01	9.902922e+00
2.232962499961106e-04	2.460280e-01	9.940309e+00
2.237845312461106e-04	2.933165e-01	9.968406e+00
2.242728124961106e-04	3.406020e-01	9.987213e+00
2.253191294603963e-04	4.421421e-01	9.994546e+00
2.263654464246820e-04	5.414320e-01	9.959616e+00
2.274117633889677e-04	6.384719e-01	9.882422e+00
2.284580803532534e-04	7.332616e-01	9.762964e+00
2.295043973175392e-04	8.258012e-01	9.601243e+00
2.305507142818249e-04	9.160907e-01	9.397258e+00
2.315970312461106e-04	1.004130e+00	9.151010e+00
2.329223660675392e-04	1.110562e+00	8.775500e+00
2.342477008889677e-04	1.208801e+00	8.347659e+00
2.355730357103963e-04	1.298849e+00	7.867486e+00
2.368983705318249e-04	1.380706e+00	7.334980e+00
2.382237053532535e-04	1.454371e+00	6.750142e+00
2.395490401746820e-04	1.519844e+00	6.112972e+00
2.408743749961106e-04	1.577125e+00	5.423469e+00
2.416416741032535e-04	1.605074e+00	5.009869e+00
2.424089732103963e-04	1.629500e+00	4.587145e+00
2.431762723175392e-04	1.650401e+00	4.155297e+00
2.439435714246820e-04	1.667779e+00	3.714326e+00
2.447108705318249e-04	1.681633e+00	3.264231e+00
2.454781696389677e-04	1.691963e+00	2.805013e+00
2.462454687461106e-04	1.698769e+00	2.336672e+00
2.472220312461106e-04	1.702052e+00	1.736191e+00
2.476405580318249e-04	1.701648e+00	1.476257e+00
2.480590848175391e-04	1.700164e+00	1.215754e+00
2.484776116032534e-04	1.697599e+00	9.546807e-01
2.488961383889677e-04	1.693955e+00	6.930385e-01
2.493146651746820e-04	1.689229e+00	4.308270e-01
2.497331919603963e-04	1.683424e+00	1.680463e-01
2.501517187461106e-04	1.676538e+00	-9.530382e-02
2.507097544603963e-04	1.665657e+00	-4.467682e-01
2.512677901746820e-04	1.652931e+00	-7.966141e-01
2.518258258889677e-04	1.638362e+00	-1.144842e+00
2.523838616032534e-04	1.621947e+00	-1.491451e+00
2.529418973175391e-04	1.603689e+00	-1.836441e+00
2.534999330318249e-04	1.583585e+00	-2.179814e+00
2.540579687461106e-04	1.561638e+00	-2.521567e+00
2.551740401746820e-04	1.511785e+00	-3.200890e+00
2.562901116032534e-04	1.455870e+00	-3.856760e+00
2.574061830318249e-04	1.393892e+00	-4.489177e+00
2.585222544603963e-04	1.325851e+00	-5.098142e+00
2.596383258889677e-04	1.251748e+00	-5.683654e+00
2.607543973175391e-04	1.171581e+00	-6.245713e+00
2.618704687461106e-04	1.085352e+00	-6.784320e+00
2.629167857103963e-04	9.999882e-01	-7.256226e+00
2.639631026746821e-04	9.117764e-01	-7.692524e+00
2.650094196389677e-04	8.207166e-01	-8.093215e+00
2.660557366032534e-04	7.268088e-01	-8.458298e+00
2.671020535675391e-04	6.300531e-01	-8.787773e+00
2.681483705318249e-04	5.304494e-01	-9.081641e+00
2.691946874961106e-04	4.279978e-01	-9.339901e+00
2.697527232103963e-04	3.731396e-01	-9.459456e+00
2.703107589246821e-04	3.181224e-01	-9.567095e+00
2.708687946389678e-04	2.629462e-01	-9.662819e+00
2.714268303532535e-04	2.076109e-01	-9.746628e+00
2.719848660675392e-04	1.521165e-01	-9.818521e+00
2.725429017818249e-04	9.646313e-02	-9.878498e+00
2.731009374961106e-04	4.065068e-02	-9.926559e+00
2.735892187461106e-04	-7.976346e-03	-9.958395e+00
2.745657812461106e-04	-1.048713e-01	-9.993927e+00
2.760306249961106e-04	-2.486406e-01	-9.976692e+00
2.770071874961106e-04	-3.437470e-01	-9.916811e+00
2.779837499961106e-04	-4.363497e-01	-9.820909e+00
2.789603124961106e-04	-5.264490e-01	-9.688985e+00
2.799368749961106e-04	-6.140446e-01	-9.521040e+00
2.809134374961106e-04	-6.991368e-01	-9.317074e+00
2.818899999961106e-04	-7.817254e-01	-9.077087e+00
2.828665624961106e-04	-8.618104e-01	-8.801078e+00
2.841221428532535e-04	-9.596148e-01	-8.391747e+00
2.853777232103963e-04	-1.049633e+00	-7.938085e+00
2.866333035675392e-04	-1.131866e+00	-7.440094e+00
2.878888839246821e-04	-1.206313e+00	-6.897773e+00
2.891444642818249e-04	-1.272974e+00	-6.311122e+00
2.904000446389678e-04	-1.331850e+00	-5.680141e+00
2.916556249961106e-04	-1.382939e+00	-5.004829e+00
2.923531696389678e-04	-1.406859e+00	-4.618882e+00
2.930507142818249e-04	-1.427832e+00	-4.225989e+00
2.937482589246821e-04	-1.445857e+00	-3.826151e+00
2.944458035675392e-04	-1.460934e+00	-3.419368e+00
2.951433482103963e-04	-1.473065e+00	-3.005640e+00
2.958408928532535e-04	-1.482247e+00	-2.584967e+00
2.965384374961106e-04	-1.488483e+00	-2.157349e+00
2.968872098175392e-04	-1.490438e+00	-1.942661e+00
2.972359821389678e-04	-1.491638e+00	-1.727300e+00
2.975847544603963e-04	-1.492083e+00	-1.511265e+00
2.979335267818249e-04	-1.491773e+00	-1.294558e+00
2.982822991032535e-04	-1.490709e+00	-1.077176e+00
2.986310714246821e-04	-1.488889e+00	-8.591216e-01
2.989798437461106e-04	-1.486314e+00	-6.403935e-01
2.999564062461106e-04	-1.475112e+00	-2.738428e-02
3.003749330318249e-04	-1.468500e+00	2.359530e-01
3.007934598175392e-04	-1.460834e+00	4.986743e-01
3.012119866032535e-04	-1.452114e+00	7.607795e-01
3.016305133889678e-04	-1.442339e+00	1.022269e+00
3.020490401746821e-04	-1.431511e+00	1.283142e+00
3.024675669603963e-04	-1.419629e+00	1.543399e+00
3.028860937461106e-04	-1.406693e+00	1.803040e+00
3.038626562461106e-04	-1.372124e+00	2.408027e+00
3.048392187461106e-04	-1.332539e+00	2.998556e+00
3.058157812461106e-04	-1.287937e+00	3.574626e+00
3.067923437461106e-04	-1.238320e+00	4.136237e+00
3.077689062461106e-04	-1.183687e+00	4.683389e+00
3.087454687461106e-04	-1.124037e+00	5.216082e+00
3.097220312461106e-04	-1.059372e+00	5.734317e+00
3.108381026746821e-04	-9.797153e-01	6.299878e+00
3.119541741032535e-04	-8.959911e-01	6.828513e+00
3.130702455318249e-04	-8.081992e-01	7.320222e+00
3.141863169603963e-04	-7.163397e-01	7.775004e+00
3.153023883889678e-04	-6.204125e-01	8.192861e+00
3.164184598175392e-04	-5.204177e-01	8.573791e+00
3.175345312461106e-04	-4.163553e-01	8.917795e+00
3.180925669603963e-04	-3.638198e-01	9.071127e+00
3.186506026746821e-04	-3.109208e-01	9.212915e+00
3.192086383889678e-04	-2.576584e-01	9.343159e+00
3.197666741032535e-04	-2.040324e-01	9.461858e+00
3.203247098175392e-04	-1.500430e-01	9.569013e+00
3.208827455318250e-04	-9.569008e-02	9.664624e+00
3.214407812461106e-04	-4.097367e-02	9.748690e+00
3.224173437461107e-04	5.475803e-02	9.866304e+00
3.230451339246821e-04	1.165789e-01	9.922391e+00
3.236729241032535e-04	1.780771e-01	9.962954e+00
3.243007142818250e-04	2.392525e-01	9.987995e+00
3.249285044603964e-04	3.001053e-01	9.997513e+00
3.255562946389678e-04	3.606354e-01	9.991509e+00
3.261840848175392e-04	4.208427e-01	9.969981e+00
3.268118749961107e-04	4.807274e-01	9.932931e+00
3.279977008889678e-04	5.929558e-01	9.817390e+00
3.291835267818250e-04	7.007928e-01	9.650531e+00
3.303693526746821e-04	8.042383e-01	9.432354e+00
3.315551785675392e-04	9.032925e-01	9.162860e+00
3.327410044603964e-04	9.979552e-01	8.842047e+00
3.339268303532535e-04	1.088226e+00	8.469916e+00
3.351126562461107e-04	1.174106e+00	8.046468e+00
3.362287276746821e-04	1.248710e+00	7.604497e+00
3.373447991032535e-04	1.316700e+00	7.131413e+00
3.384608705318250e-04	1.378076e+00	6.627214e+00
3.395769419603964e-04	1.432839e+00	6.091902e+00
3.406930133889678e-04	1.480988e+00	5.525477e+00
3.418090848175392e-04	1.522523e+00	4.927937e+00
3.429251562461107e-04	1.557444e+00	4.299284e+00
3.434831919603964e-04	1.571845e+00	3.979217e+00
3.440412276746821e-04	1.584344e+00	3.655268e+00
3.445992633889678e-04	1.594942e+00	3.327437e+00
3.451572991032535e-04	1.603638e+00	2.995724e+00
3.457153348175392e-04	1.610433e+00	2.660129e+00
3.462733705318250e-04	1.615326e+00	2.320653e+00
3.468314062461107e-04	1.618318e+00	1.977295e+00
3.487845312461107e-04	1.613511e+00	7.627798e-01
3.492030580318250e-04	1.609399e+00	4.999521e-01
3.496215848175392e-04	1.604218e+00	2.372327e-01
3.500401116032535e-04	1.597968e+00	-2.537856e-02
3.504586383889678e-04	1.590650e+00	-2.878816e-01
3.508771651746821e-04	1.582263e+00	-5.502763e-01
3.512956919603964e-04	1.572808e+00	-8.125628e-01
3.517142187461107e-04	1.562284e+00	-1.074741e+00
3.525512723175392e-04	1.537892e+00	-1.599278e+00
3.533883258889678e-04	1.509601e+00	-2.115885e+00
3.542253794603964e-04	1.477412e+00	-2.624563e+00
3.550624330318250e-04	1.441324e+00	-3.125311e+00
3.558994866032535e-04	1.401338e+00	-3.618130e+00
3.567365401746821e-04	1.357453e+00	-4.103019e+00
3.575735937461107e-04	1.309669e+00	-4.579979e+00
3.588291741032535e-04	1.230395e+00	-5.275305e+00
3.600847544603964e-04	1.145168e+00	-5.928436e+00
3.613403348175392e-04	1.053987e+00	-6.539371e+00
3.625959151746821e-04	9.568532e-01	-7.108111e+00
3.638514955318250e-04	8.537655e-01	-7.634655e+00
